
T1454 000:041 SEGGER J-Link V4.62 Log File (0000ms, 0041ms total)
T1454 000:041 DLL Compiled: Jan 25 2013 15:19:47 (0000ms, 0041ms total)
T1454 000:041 Logging started @ 2013-04-24 18:00 (0000ms, 0041ms total)
T1454 000:041 JLINK_SetWarnOutHandler(...) (0000ms, 0041ms total)
T1454 000:041 JLINK_OpenEx(...)
Firmware: J-Link Lite-Cortex-M V8 compiled Aug 29 2012 15:24:23
Hardware: V8.00
S/N: 518003257
Feature(s): GDB  returns O.K. (0030ms, 0071ms total)
T1454 000:071 JLINK_SetErrorOutHandler(...) (0000ms, 0071ms total)
T1454 000:071 JLINK_ExecCommand("ProjectFile = "D:\Keil\ARM\Device\spi_test\projnav\JLinkSettings.ini"", ...)  returns 0x00 (0000ms, 0071ms total)
T1454 000:077 JLINK_ExecCommand("Device = nRF51822", ...)
                JLINK_ExecCommand("map ram 0x20000000 - 0x20001FFF", ...)  returns 0x00 (0000ms, 0000ms total)
                JLINK_AddMirrorAreaEx(Addr = 0x00000000, Size = 0x00000000) (0000ms, 0000ms total)
              Device "NRF51822" selected (256 KB flash, 8 KB RAM).  returns 0x00 (0006ms, 0077ms total)
T1454 000:083 JLINK_ExecCommand("DisableConnectionTimeout", ...)  returns 0x00 (0000ms, 0077ms total)
T1454 000:083 JLINK_TIF_Select(JLINKARM_TIF_SWD)  returns 0x00 (0007ms, 0084ms total)
T1454 000:090 JLINK_SetSpeed(1000) (0002ms, 0086ms total)
T1454 000:092 JLINK_GetHardwareVersion()  returns 0x13880 (0000ms, 0086ms total)
T1454 000:092 JLINK_GetDLLVersion()  returns 46200 (0000ms, 0086ms total)
T1454 000:092 JLINK_GetFirmwareString(...) (0000ms, 0086ms total)
T1454 000:100 JLINK_GetDLLVersion()  returns 46200 (0000ms, 0086ms total)
T1454 000:100 JLINK_GetCompileDateTime() (0000ms, 0086ms total)
T1454 000:102 JLINK_GetFirmwareString(...) (0000ms, 0086ms total)
T1454 000:105 JLINK_GetHardwareVersion()  returns 0x13880 (0000ms, 0086ms total)
T1454 000:115 JLINK_GetId() >0x108 TIF>Found SWD-DP with ID 0x0BB11477 >0x35 TIF> >0x0D TIF> >0x28 TIF> >0x0D TIF> >0x28 TIF> >0x35 TIF> >0x35 TIF> >0x0D TIF> >0x28 TIF> >0x35 TIF> >0x35 TIF> >0x35 TIF> >0x35 TIF> >0x0D TIF> >0x28 TIF> >0x0D TIF> >0x28 TIF> >0x0D TIF> >0x28 TIF> >0x35 TIF> >0x35 TIF> >0x35 TIF> >0x0D TIF> >0x28 TIF> >0x0D TIF> >0x28 TIF> >0x35 TIF> >0x35 TIF> >0x0D TIF> >0x28 TIF> >0x35 TIF> >0x35 TIF> >0x0D TIF> >0x28 TIF> >0x0D TIF> >0x28 TIF> >0x0D TIF> >0x28 TIF> >0x35 TIF>
 >0x35 TIF> >0x0D TIF> >0x28 TIF> >0x0D TIF> >0x28 TIF> >0x0D TIF> >0x28 TIF> >0x0D TIF> >0x28 TIF> >0x0D TIF> >0x28 TIF> >0x35 TIF> >0x35 TIF> >0x35 TIF> >0x0D TIF> >0x28 TIF> >0x35 TIF> >0x35 TIF> >0x0D TIF> >0x28 TIF> >0x35 TIF> >0x35 TIF>FPUnit: 4 code (BP) slots and 0 literal slots >0x0D TIF> >0x28 TIF> >0x35 TIF> >0x35 TIF> >0x0D TIF> >0x28 TIF> >0x0D TIF> >0x28 TIF> >0x0D TIF> >0x28 TIF> >0x35 TIF> >0x35 TIF> >0x0D TIF> >0x28 TIF> >0x35 TIF> >0x35 TIF> >0x0D TIF> >0x28 TIF> >0x35 TIF> >0x35 TIF>
Found Cortex-M0 r0p0, Little endian. >0x35 TIF>  returns 0x0BB11477 (0092ms, 0178ms total)
T1454 000:207 JLINK_GetDeviceFamily()  returns 6 (0000ms, 0178ms total)
T1454 000:209 JLINK_ReadMem (0xE00FFFF0, 0x0010 Bytes, ...) -- CPU is running -- CPU_ReadMem(16 bytes @ 0xE00FFFF0) -- Data:  0D 00 00 00 10 00 00 00 05 00 00 00 B1 00 00 00  returns 0x00 (0003ms, 0181ms total)
T1454 000:212 JLINK_ReadMem (0xE00FFFD0, 0x0020 Bytes, ...) -- CPU is running -- CPU_ReadMem(32 bytes @ 0xE00FFFD0) -- Data:  04 00 00 00 00 00 00 00 00 00 00 00 00 00 00 00 ...  returns 0x00 (0002ms, 0183ms total)
T1454 000:214 JLINK_ReadMem (0xE00FF000, 0x0018 Bytes, ...) -- CPU is running -- CPU_ReadMem(24 bytes @ 0xE00FF000) -- Data:  03 F0 F0 FF 03 20 F0 FF 03 30 F0 FF 00 00 00 00 ...  returns 0x00 (0002ms, 0185ms total)
T1454 000:216 JLINK_ReadMemU32(0xE000ED00, 0x0001 Items, ...) -- CPU is running -- CPU_ReadMem(4 bytes @ 0xE000ED00) -- Data:  00 C2 0C 41  returns 0x01 (0001ms, 0186ms total)
T1454 000:217 JLINK_SetResetType(JLINKARM_RESET_TYPE_NORMAL)  returns JLINKARM_RESET_TYPE_NORMAL (0000ms, 0186ms total)
T1454 000:217 JLINK_Reset() -- CPU is running -- CPU_WriteMem(4 bytes @ 0xE000EDF0) -- CPU is running -- CPU_WriteMem(4 bytes @ 0xE000EDFC) >0x35 TIF> -- CPU is running -- CPU_WriteMem(4 bytes @ 0xE000ED0C) -- CPU is running -- CPU_ReadMem(4 bytes @ 0xE000EDF0) -- CPU is running -- CPU_ReadMem(4 bytes @ 0xE000EDF0) -- CPU is running -- CPU_WriteMem(4 bytes @ 0xE000EDF0) -- CPU is running -- CPU_WriteMem(4 bytes @ 0xE000EDFC) -- CPU is running -- CPU_ReadMem(4 bytes @ 0xE000EDF0)
 -- CPU_WriteMem(4 bytes @ 0xE0002000) (0024ms, 0210ms total)
T1454 000:241 JLINK_Halt()  returns 0x00 (0000ms, 0210ms total)
T1454 000:241 JLINK_IsHalted() -- MA0 is in flash -- Unmirror addr 0x000000D4  returns TRUE (0000ms, 0210ms total)
T1454 000:241 JLINK_ReadMemU32(0xE000EDF0, 0x0001 Items, ...) -- CPU_ReadMem(4 bytes @ 0xE000EDF0) -- Data:  03 00 03 00  returns 0x01 (0001ms, 0211ms total)
T1454 000:242 JLINK_WriteU32(0xE000EDF0, 0xA05F0003) -- CPU_WriteMem(4 bytes @ 0xE000EDF0) -- Invalidate MA0 status  returns 0x00 (0001ms, 0212ms total)
T1454 000:243 JLINK_WriteU32(0xE000EDFC, 0x01000000) -- CPU_WriteMem(4 bytes @ 0xE000EDFC)  returns 0x00 (0001ms, 0213ms total)
T1454 000:252 JLINK_GetHWStatus(...)  returns 0x00 (0001ms, 0214ms total)
T1454 000:261 JLINK_GetNumBPUnits(Type = 0xFFFFFF00)  returns 0x04 (0000ms, 0214ms total)
T1454 000:261 JLINK_GetNumBPUnits(Type = 0xF0)  returns 0x2000 (0000ms, 0214ms total)
T1454 000:261 JLINK_GetNumWPUnits()  returns 0x02 (0000ms, 0214ms total)
T1454 000:267 JLINK_GetSpeed()  returns 0x3E8 (0000ms, 0214ms total)
T1454 000:272 JLINK_ReadMemU32(0xE000E004, 0x0001 Items, ...) -- CPU_ReadMem(4 bytes @ 0xE000E004) -- Data:  00 00 00 00  returns 0x01 (0001ms, 0215ms total)
T1454 000:279 JLINK_Halt()  returns 0x00 (0000ms, 0215ms total)
T1454 000:279 JLINK_IsHalted() -- MA0 is in flash -- Unmirror addr 0x000000D4  returns TRUE (0000ms, 0215ms total)
T1454 000:281 JLINK_WriteMem(0x20000000, 0x0274 Bytes, ...) -- Data:  00 BE 0A E0 0D 78 2D 06 68 40 08 24 40 00 00 D3 ... -- CPU_WriteMem(628 bytes @ 0x20000000)  returns 0x274 (0011ms, 0226ms total)
T1454 000:292 JLINK_WriteReg(R0, 0x00000000)  returns 0x00 (0000ms, 0226ms total)
T1454 000:292 JLINK_WriteReg(R1, 0x00F42400)  returns 0x00 (0000ms, 0226ms total)
T1454 000:292 JLINK_WriteReg(R2, 0x00000001)  returns 0x00 (0000ms, 0226ms total)
T1454 000:292 JLINK_WriteReg(R3, 0x00000000)  returns 0x00 (0000ms, 0226ms total)
T1454 000:292 JLINK_WriteReg(R4, 0x00000000)  returns 0x00 (0000ms, 0226ms total)
T1454 000:292 JLINK_WriteReg(R5, 0x00000000)  returns 0x00 (0000ms, 0226ms total)
T1454 000:292 JLINK_WriteReg(R6, 0x00000000)  returns 0x00 (0000ms, 0226ms total)
T1454 000:292 JLINK_WriteReg(R7, 0x00000000)  returns 0x00 (0000ms, 0226ms total)
T1454 000:292 JLINK_WriteReg(R8, 0x00000000)  returns 0x00 (0000ms, 0226ms total)
T1454 000:292 JLINK_WriteReg(R9, 0x20000270)  returns 0x00 (0000ms, 0226ms total)
T1454 000:292 JLINK_WriteReg(R10, 0x00000000)  returns 0x00 (0000ms, 0226ms total)
T1454 000:292 JLINK_WriteReg(R11, 0x00000000)  returns 0x00 (0000ms, 0226ms total)
T1454 000:292 JLINK_WriteReg(R12, 0x00000000)  returns 0x00 (0000ms, 0226ms total)
T1454 000:292 JLINK_WriteReg(R13, 0x20000800)  returns 0x00 (0000ms, 0226ms total)
T1454 000:292 JLINK_WriteReg(R14, 0x20000001)  returns 0x00 (0000ms, 0226ms total)
T1454 000:292 JLINK_WriteReg(R15, 0x20000028)  returns 0x00 (0000ms, 0226ms total)
T1454 000:292 JLINK_WriteReg(XPSR, 0x01000000)  returns 0x00 (0001ms, 0227ms total)
T1454 000:293 JLINK_WriteReg(MSP, 0x20000800)  returns 0x00 (0000ms, 0227ms total)
T1454 000:293 JLINK_WriteReg(PSP, 0x20000800)  returns 0x00 (0000ms, 0227ms total)
T1454 000:293 JLINK_WriteReg(CFBP, 0x00000000)  returns 0x00 (0000ms, 0227ms total)
T1454 000:293 JLINK_SetBPEx(Addr = 0x20000000, Type = 0xFFFFFFF2) -- CPU_ReadMem(2 bytes @ 0x20000000)  returns 0x00000001 (0001ms, 0228ms total)
T1454 000:294 JLINK_Go() -- CPU_WriteMem(2 bytes @ 0x20000000) -- Invalidate MA0 status -- CPU_WriteMem(4 bytes @ 0xE0002008) -- CPU_WriteMem(4 bytes @ 0xE000200C) -- CPU_WriteMem(4 bytes @ 0xE0002010) -- CPU_WriteMem(4 bytes @ 0xE0002014) (0010ms, 0238ms total)
T1454 000:304 JLINK_IsHalted() -- CPU_ReadMem(2 bytes @ 0x20000000)  returns TRUE (0006ms, 0244ms total)
T1454 000:310 JLINK_ReadReg(R15)  returns 0x20000000 (0000ms, 0238ms total)
T1454 000:310 JLINK_ClrBPEx(BPHandle = 0x00000001)  returns 0x00 (0000ms, 0238ms total)
T1454 000:310 JLINK_ReadReg(R0)  returns 0x00000000 (0000ms, 0238ms total)
T1454 000:311 JLINK_WriteReg(R0, 0x00000000)  returns 0x00 (0000ms, 0238ms total)
T1454 000:311 JLINK_WriteReg(R1, 0x00000400)  returns 0x00 (0000ms, 0238ms total)
T1454 000:311 JLINK_WriteReg(R2, 0x000000FF)  returns 0x00 (0000ms, 0238ms total)
T1454 000:311 JLINK_WriteReg(R3, 0x00000000)  returns 0x00 (0000ms, 0238ms total)
T1454 000:311 JLINK_WriteReg(R4, 0x00000000)  returns 0x00 (0000ms, 0238ms total)
T1454 000:311 JLINK_WriteReg(R5, 0x00000000)  returns 0x00 (0000ms, 0238ms total)
T1454 000:311 JLINK_WriteReg(R6, 0x00000000)  returns 0x00 (0000ms, 0238ms total)
T1454 000:311 JLINK_WriteReg(R7, 0x00000000)  returns 0x00 (0000ms, 0238ms total)
T1454 000:311 JLINK_WriteReg(R8, 0x00000000)  returns 0x00 (0000ms, 0238ms total)
T1454 000:311 JLINK_WriteReg(R9, 0x20000270)  returns 0x00 (0000ms, 0238ms total)
T1454 000:311 JLINK_WriteReg(R10, 0x00000000)  returns 0x00 (0000ms, 0238ms total)
T1454 000:311 JLINK_WriteReg(R11, 0x00000000)  returns 0x00 (0000ms, 0238ms total)
T1454 000:311 JLINK_WriteReg(R12, 0x00000000)  returns 0x00 (0000ms, 0238ms total)
T1454 000:311 JLINK_WriteReg(R13, 0x20000800)  returns 0x00 (0000ms, 0238ms total)
T1454 000:311 JLINK_WriteReg(R14, 0x20000001)  returns 0x00 (0000ms, 0238ms total)
T1454 000:311 JLINK_WriteReg(R15, 0x20000204)  returns 0x00 (0000ms, 0238ms total)
T1454 000:311 JLINK_WriteReg(XPSR, 0x01000000)  returns 0x00 (0000ms, 0238ms total)
T1454 000:311 JLINK_WriteReg(MSP, 0x20000800)  returns 0x00 (0000ms, 0238ms total)
T1454 000:311 JLINK_WriteReg(PSP, 0x20000800)  returns 0x00 (0000ms, 0238ms total)
T1454 000:311 JLINK_WriteReg(CFBP, 0x00000000)  returns 0x00 (0000ms, 0238ms total)
T1454 000:311 JLINK_SetBPEx(Addr = 0x20000000, Type = 0xFFFFFFF2)  returns 0x00000002 (0000ms, 0238ms total)
T1454 000:311 JLINK_Go() (0003ms, 0241ms total)
T1454 000:314 JLINK_IsHalted() -- CPU_ReadMem(2 bytes @ 0x20000000)  returns TRUE (0006ms, 0247ms total)
T1454 000:320 JLINK_ReadReg(R15)  returns 0x20000000 (0000ms, 0241ms total)
T1454 000:320 JLINK_ClrBPEx(BPHandle = 0x00000002)  returns 0x00 (0000ms, 0241ms total)
T1454 000:320 JLINK_ReadReg(R0)  returns 0x00000001 (0000ms, 0241ms total)
T1454 000:320 JLINK_WriteReg(R0, 0x00000000)  returns 0x00 (0000ms, 0241ms total)
T1454 000:320 JLINK_WriteReg(R1, 0x00000400)  returns 0x00 (0000ms, 0241ms total)
T1454 000:320 JLINK_WriteReg(R2, 0x000000FF)  returns 0x00 (0000ms, 0241ms total)
T1454 000:320 JLINK_WriteReg(R3, 0x00000000)  returns 0x00 (0000ms, 0241ms total)
T1454 000:320 JLINK_WriteReg(R4, 0x00000000)  returns 0x00 (0000ms, 0241ms total)
T1454 000:320 JLINK_WriteReg(R5, 0x00000000)  returns 0x00 (0000ms, 0241ms total)
T1454 000:320 JLINK_WriteReg(R6, 0x00000000)  returns 0x00 (0000ms, 0241ms total)
T1454 000:320 JLINK_WriteReg(R7, 0x00000000)  returns 0x00 (0000ms, 0241ms total)
T1454 000:320 JLINK_WriteReg(R8, 0x00000000)  returns 0x00 (0000ms, 0241ms total)
T1454 000:320 JLINK_WriteReg(R9, 0x20000270)  returns 0x00 (0000ms, 0241ms total)
T1454 000:320 JLINK_WriteReg(R10, 0x00000000)  returns 0x00 (0000ms, 0241ms total)
T1454 000:320 JLINK_WriteReg(R11, 0x00000000)  returns 0x00 (0000ms, 0241ms total)
T1454 000:320 JLINK_WriteReg(R12, 0x00000000)  returns 0x00 (0000ms, 0241ms total)
T1454 000:320 JLINK_WriteReg(R13, 0x20000800)  returns 0x00 (0000ms, 0241ms total)
T1454 000:320 JLINK_WriteReg(R14, 0x20000001)  returns 0x00 (0000ms, 0241ms total)
T1454 000:320 JLINK_WriteReg(R15, 0x200000F8)  returns 0x00 (0000ms, 0241ms total)
T1454 000:320 JLINK_WriteReg(XPSR, 0x01000000)  returns 0x00 (0000ms, 0241ms total)
T1454 000:320 JLINK_WriteReg(MSP, 0x20000800)  returns 0x00 (0000ms, 0241ms total)
T1454 000:320 JLINK_WriteReg(PSP, 0x20000800)  returns 0x00 (0000ms, 0241ms total)
T1454 000:320 JLINK_WriteReg(CFBP, 0x00000000)  returns 0x00 (0000ms, 0241ms total)
T1454 000:321 JLINK_SetBPEx(Addr = 0x20000000, Type = 0xFFFFFFF2)  returns 0x00000003 (0000ms, 0241ms total)
T1454 000:321 JLINK_Go() (0002ms, 0243ms total)
T1454 000:323 JLINK_IsHalted()  returns FALSE (0001ms, 0244ms total)
T1454 000:357 JLINK_IsHalted() -- CPU_ReadMem(2 bytes @ 0x20000000)  returns TRUE (0006ms, 0249ms total)
T1454 000:363 JLINK_ReadReg(R15)  returns 0x20000000 (0000ms, 0243ms total)
T1454 000:363 JLINK_ClrBPEx(BPHandle = 0x00000003)  returns 0x00 (0000ms, 0243ms total)
T1454 000:363 JLINK_ReadReg(R0)  returns 0x00000000 (0000ms, 0243ms total)
T1454 000:364 JLINK_WriteReg(R0, 0x00000400)  returns 0x00 (0000ms, 0243ms total)
T1454 000:364 JLINK_WriteReg(R1, 0x00000400)  returns 0x00 (0000ms, 0243ms total)
T1454 000:364 JLINK_WriteReg(R2, 0x000000FF)  returns 0x00 (0000ms, 0243ms total)
T1454 000:364 JLINK_WriteReg(R3, 0x00000000)  returns 0x00 (0000ms, 0243ms total)
T1454 000:364 JLINK_WriteReg(R4, 0x00000000)  returns 0x00 (0000ms, 0243ms total)
T1454 000:364 JLINK_WriteReg(R5, 0x00000000)  returns 0x00 (0000ms, 0243ms total)
T1454 000:364 JLINK_WriteReg(R6, 0x00000000)  returns 0x00 (0000ms, 0243ms total)
T1454 000:364 JLINK_WriteReg(R7, 0x00000000)  returns 0x00 (0000ms, 0243ms total)
T1454 000:364 JLINK_WriteReg(R8, 0x00000000)  returns 0x00 (0000ms, 0243ms total)
T1454 000:364 JLINK_WriteReg(R9, 0x20000270)  returns 0x00 (0000ms, 0243ms total)
T1454 000:364 JLINK_WriteReg(R10, 0x00000000)  returns 0x00 (0000ms, 0243ms total)
T1454 000:364 JLINK_WriteReg(R11, 0x00000000)  returns 0x00 (0000ms, 0243ms total)
T1454 000:364 JLINK_WriteReg(R12, 0x00000000)  returns 0x00 (0000ms, 0243ms total)
T1454 000:364 JLINK_WriteReg(R13, 0x20000800)  returns 0x00 (0000ms, 0243ms total)
T1454 000:364 JLINK_WriteReg(R14, 0x20000001)  returns 0x00 (0000ms, 0243ms total)
T1454 000:364 JLINK_WriteReg(R15, 0x20000204)  returns 0x00 (0000ms, 0243ms total)
T1454 000:364 JLINK_WriteReg(XPSR, 0x01000000)  returns 0x00 (0000ms, 0243ms total)
T1454 000:364 JLINK_WriteReg(MSP, 0x20000800)  returns 0x00 (0000ms, 0243ms total)
T1454 000:364 JLINK_WriteReg(PSP, 0x20000800)  returns 0x00 (0000ms, 0243ms total)
T1454 000:364 JLINK_WriteReg(CFBP, 0x00000000)  returns 0x00 (0000ms, 0243ms total)
T1454 000:364 JLINK_SetBPEx(Addr = 0x20000000, Type = 0xFFFFFFF2)  returns 0x00000004 (0000ms, 0243ms total)
T1454 000:364 JLINK_Go() (0003ms, 0246ms total)
T1454 000:367 JLINK_IsHalted() -- CPU_ReadMem(2 bytes @ 0x20000000)  returns TRUE (0006ms, 0252ms total)
T1454 000:373 JLINK_ReadReg(R15)  returns 0x20000000 (0000ms, 0246ms total)
T1454 000:373 JLINK_ClrBPEx(BPHandle = 0x00000004)  returns 0x00 (0000ms, 0246ms total)
T1454 000:373 JLINK_ReadReg(R0)  returns 0x00000001 (0000ms, 0246ms total)
T1454 000:373 JLINK_WriteReg(R0, 0x00000400)  returns 0x00 (0000ms, 0246ms total)
T1454 000:373 JLINK_WriteReg(R1, 0x00000400)  returns 0x00 (0000ms, 0246ms total)
T1454 000:373 JLINK_WriteReg(R2, 0x000000FF)  returns 0x00 (0000ms, 0246ms total)
T1454 000:373 JLINK_WriteReg(R3, 0x00000000)  returns 0x00 (0000ms, 0246ms total)
T1454 000:373 JLINK_WriteReg(R4, 0x00000000)  returns 0x00 (0000ms, 0246ms total)
T1454 000:373 JLINK_WriteReg(R5, 0x00000000)  returns 0x00 (0000ms, 0246ms total)
T1454 000:373 JLINK_WriteReg(R6, 0x00000000)  returns 0x00 (0000ms, 0246ms total)
T1454 000:373 JLINK_WriteReg(R7, 0x00000000)  returns 0x00 (0000ms, 0246ms total)
T1454 000:373 JLINK_WriteReg(R8, 0x00000000)  returns 0x00 (0000ms, 0246ms total)
T1454 000:373 JLINK_WriteReg(R9, 0x20000270)  returns 0x00 (0000ms, 0246ms total)
T1454 000:373 JLINK_WriteReg(R10, 0x00000000)  returns 0x00 (0000ms, 0246ms total)
T1454 000:373 JLINK_WriteReg(R11, 0x00000000)  returns 0x00 (0000ms, 0246ms total)
T1454 000:373 JLINK_WriteReg(R12, 0x00000000)  returns 0x00 (0000ms, 0246ms total)
T1454 000:373 JLINK_WriteReg(R13, 0x20000800)  returns 0x00 (0000ms, 0246ms total)
T1454 000:373 JLINK_WriteReg(R14, 0x20000001)  returns 0x00 (0000ms, 0246ms total)
T1454 000:373 JLINK_WriteReg(R15, 0x200000F8)  returns 0x00 (0000ms, 0246ms total)
T1454 000:373 JLINK_WriteReg(XPSR, 0x01000000)  returns 0x00 (0001ms, 0247ms total)
T1454 000:374 JLINK_WriteReg(MSP, 0x20000800)  returns 0x00 (0000ms, 0247ms total)
T1454 000:374 JLINK_WriteReg(PSP, 0x20000800)  returns 0x00 (0000ms, 0247ms total)
T1454 000:374 JLINK_WriteReg(CFBP, 0x00000000)  returns 0x00 (0000ms, 0247ms total)
T1454 000:374 JLINK_SetBPEx(Addr = 0x20000000, Type = 0xFFFFFFF2)  returns 0x00000005 (0000ms, 0247ms total)
T1454 000:374 JLINK_Go() (0002ms, 0249ms total)
T1454 000:376 JLINK_IsHalted()  returns FALSE (0001ms, 0250ms total)
T1454 000:378 JLINK_IsHalted()  returns FALSE (0001ms, 0250ms total)
T1454 000:380 JLINK_IsHalted()  returns FALSE (0000ms, 0249ms total)
T1454 000:381 JLINK_IsHalted()  returns FALSE (0001ms, 0250ms total)
T1454 000:388 JLINK_IsHalted()  returns FALSE (0001ms, 0250ms total)
T1454 000:390 JLINK_IsHalted()  returns FALSE (0000ms, 0249ms total)
T1454 000:391 JLINK_IsHalted()  returns FALSE (0000ms, 0249ms total)
T1454 000:392 JLINK_IsHalted()  returns FALSE (0000ms, 0249ms total)
T1454 000:393 JLINK_IsHalted()  returns FALSE (0001ms, 0250ms total)
T1454 000:395 JLINK_IsHalted()  returns FALSE (0000ms, 0249ms total)
T1454 000:396 JLINK_IsHalted()  returns FALSE (0001ms, 0250ms total)
T1454 000:398 JLINK_IsHalted() -- CPU_ReadMem(2 bytes @ 0x20000000)  returns TRUE (0005ms, 0254ms total)
T1454 000:403 JLINK_ReadReg(R15)  returns 0x20000000 (0000ms, 0249ms total)
T1454 000:403 JLINK_ClrBPEx(BPHandle = 0x00000005)  returns 0x00 (0000ms, 0249ms total)
T1454 000:403 JLINK_ReadReg(R0)  returns 0x00000000 (0000ms, 0249ms total)
T1454 000:404 JLINK_WriteReg(R0, 0x00000001)  returns 0x00 (0000ms, 0249ms total)
T1454 000:404 JLINK_WriteReg(R1, 0x00000400)  returns 0x00 (0000ms, 0249ms total)
T1454 000:404 JLINK_WriteReg(R2, 0x000000FF)  returns 0x00 (0000ms, 0249ms total)
T1454 000:404 JLINK_WriteReg(R3, 0x00000000)  returns 0x00 (0000ms, 0249ms total)
T1454 000:404 JLINK_WriteReg(R4, 0x00000000)  returns 0x00 (0000ms, 0249ms total)
T1454 000:404 JLINK_WriteReg(R5, 0x00000000)  returns 0x00 (0000ms, 0249ms total)
T1454 000:404 JLINK_WriteReg(R6, 0x00000000)  returns 0x00 (0000ms, 0249ms total)
T1454 000:404 JLINK_WriteReg(R7, 0x00000000)  returns 0x00 (0000ms, 0249ms total)
T1454 000:404 JLINK_WriteReg(R8, 0x00000000)  returns 0x00 (0000ms, 0249ms total)
T1454 000:404 JLINK_WriteReg(R9, 0x20000270)  returns 0x00 (0000ms, 0249ms total)
T1454 000:404 JLINK_WriteReg(R10, 0x00000000)  returns 0x00 (0000ms, 0249ms total)
T1454 000:404 JLINK_WriteReg(R11, 0x00000000)  returns 0x00 (0000ms, 0249ms total)
T1454 000:404 JLINK_WriteReg(R12, 0x00000000)  returns 0x00 (0000ms, 0249ms total)
T1454 000:404 JLINK_WriteReg(R13, 0x20000800)  returns 0x00 (0000ms, 0249ms total)
T1454 000:404 JLINK_WriteReg(R14, 0x20000001)  returns 0x00 (0000ms, 0249ms total)
T1454 000:404 JLINK_WriteReg(R15, 0x20000074)  returns 0x00 (0000ms, 0249ms total)
T1454 000:404 JLINK_WriteReg(XPSR, 0x01000000)  returns 0x00 (0000ms, 0249ms total)
T1454 000:404 JLINK_WriteReg(MSP, 0x20000800)  returns 0x00 (0000ms, 0249ms total)
T1454 000:404 JLINK_WriteReg(PSP, 0x20000800)  returns 0x00 (0000ms, 0249ms total)
T1454 000:404 JLINK_WriteReg(CFBP, 0x00000000)  returns 0x00 (0000ms, 0249ms total)
T1454 000:404 JLINK_SetBPEx(Addr = 0x20000000, Type = 0xFFFFFFF2)  returns 0x00000006 (0000ms, 0249ms total)
T1454 000:404 JLINK_Go() (0003ms, 0252ms total)
T1454 000:407 JLINK_IsHalted() -- CPU_ReadMem(2 bytes @ 0x20000000)  returns TRUE (0006ms, 0258ms total)
T1454 000:413 JLINK_ReadReg(R15)  returns 0x20000000 (0000ms, 0252ms total)
T1454 000:413 JLINK_ClrBPEx(BPHandle = 0x00000006)  returns 0x00 (0000ms, 0252ms total)
T1454 000:413 JLINK_ReadReg(R0)  returns 0x00000000 (0000ms, 0252ms total)
T1454 000:468 JLINK_WriteMem(0x20000000, 0x0274 Bytes, ...) -- Data:  00 BE 0A E0 0D 78 2D 06 68 40 08 24 40 00 00 D3 ... -- CPU_WriteMem(628 bytes @ 0x20000000)  returns 0x274 (0011ms, 0263ms total)
T1454 000:479 JLINK_WriteReg(R0, 0x00000000)  returns 0x00 (0000ms, 0263ms total)
T1454 000:479 JLINK_WriteReg(R1, 0x00F42400)  returns 0x00 (0000ms, 0263ms total)
T1454 000:479 JLINK_WriteReg(R2, 0x00000002)  returns 0x00 (0001ms, 0264ms total)
T1454 000:480 JLINK_WriteReg(R3, 0x00000000)  returns 0x00 (0000ms, 0264ms total)
T1454 000:480 JLINK_WriteReg(R4, 0x00000000)  returns 0x00 (0000ms, 0264ms total)
T1454 000:480 JLINK_WriteReg(R5, 0x00000000)  returns 0x00 (0000ms, 0264ms total)
T1454 000:480 JLINK_WriteReg(R6, 0x00000000)  returns 0x00 (0000ms, 0264ms total)
T1454 000:480 JLINK_WriteReg(R7, 0x00000000)  returns 0x00 (0000ms, 0264ms total)
T1454 000:480 JLINK_WriteReg(R8, 0x00000000)  returns 0x00 (0000ms, 0264ms total)
T1454 000:480 JLINK_WriteReg(R9, 0x20000270)  returns 0x00 (0000ms, 0264ms total)
T1454 000:480 JLINK_WriteReg(R10, 0x00000000)  returns 0x00 (0000ms, 0264ms total)
T1454 000:480 JLINK_WriteReg(R11, 0x00000000)  returns 0x00 (0000ms, 0264ms total)
T1454 000:480 JLINK_WriteReg(R12, 0x00000000)  returns 0x00 (0000ms, 0264ms total)
T1454 000:480 JLINK_WriteReg(R13, 0x20000800)  returns 0x00 (0000ms, 0264ms total)
T1454 000:480 JLINK_WriteReg(R14, 0x20000001)  returns 0x00 (0000ms, 0264ms total)
T1454 000:480 JLINK_WriteReg(R15, 0x20000028)  returns 0x00 (0000ms, 0264ms total)
T1454 000:480 JLINK_WriteReg(XPSR, 0x01000000)  returns 0x00 (0000ms, 0264ms total)
T1454 000:480 JLINK_WriteReg(MSP, 0x20000800)  returns 0x00 (0000ms, 0264ms total)
T1454 000:480 JLINK_WriteReg(PSP, 0x20000800)  returns 0x00 (0000ms, 0264ms total)
T1454 000:480 JLINK_WriteReg(CFBP, 0x00000000)  returns 0x00 (0000ms, 0264ms total)
T1454 000:480 JLINK_SetBPEx(Addr = 0x20000000, Type = 0xFFFFFFF2) -- CPU_ReadMem(2 bytes @ 0x20000000)  returns 0x00000007 (0002ms, 0266ms total)
T1454 000:482 JLINK_Go() -- CPU_WriteMem(2 bytes @ 0x20000000) (0004ms, 0270ms total)
T1454 000:486 JLINK_IsHalted() -- CPU_ReadMem(2 bytes @ 0x20000000)  returns TRUE (0007ms, 0277ms total)
T1454 000:493 JLINK_ReadReg(R15)  returns 0x20000000 (0000ms, 0270ms total)
T1454 000:493 JLINK_ClrBPEx(BPHandle = 0x00000007)  returns 0x00 (0000ms, 0270ms total)
T1454 000:493 JLINK_ReadReg(R0)  returns 0x00000000 (0000ms, 0270ms total)
T1454 000:494 JLINK_WriteMem(0x20000274, 0x018C Bytes, ...) -- Data:  00 0C 00 20 D5 00 00 00 E7 00 00 00 E9 00 00 00 ... -- CPU_WriteMem(396 bytes @ 0x20000274)  returns 0x18C (0008ms, 0278ms total)
T1454 000:502 JLINK_WriteMem(0x20000400, 0x0274 Bytes, ...) -- Data:  00 F0 AA F8 00 22 02 21 10 46 00 F0 FB F8 01 90 ... -- CPU_WriteMem(628 bytes @ 0x20000400)  returns 0x274 (0012ms, 0290ms total)
T1454 000:514 JLINK_WriteReg(R0, 0x00000000)  returns 0x00 (0000ms, 0290ms total)
T1454 000:514 JLINK_WriteReg(R1, 0x00000400)  returns 0x00 (0000ms, 0290ms total)
T1454 000:514 JLINK_WriteReg(R2, 0x20000274)  returns 0x00 (0000ms, 0290ms total)
T1454 000:514 JLINK_WriteReg(R3, 0x00000000)  returns 0x00 (0000ms, 0290ms total)
T1454 000:514 JLINK_WriteReg(R4, 0x00000000)  returns 0x00 (0000ms, 0290ms total)
T1454 000:514 JLINK_WriteReg(R5, 0x00000000)  returns 0x00 (0000ms, 0290ms total)
T1454 000:514 JLINK_WriteReg(R6, 0x00000000)  returns 0x00 (0000ms, 0290ms total)
T1454 000:514 JLINK_WriteReg(R7, 0x00000000)  returns 0x00 (0000ms, 0290ms total)
T1454 000:514 JLINK_WriteReg(R8, 0x00000000)  returns 0x00 (0000ms, 0290ms total)
T1454 000:514 JLINK_WriteReg(R9, 0x20000270)  returns 0x00 (0000ms, 0290ms total)
T1454 000:514 JLINK_WriteReg(R10, 0x00000000)  returns 0x00 (0000ms, 0290ms total)
T1454 000:514 JLINK_WriteReg(R11, 0x00000000)  returns 0x00 (0000ms, 0290ms total)
T1454 000:514 JLINK_WriteReg(R12, 0x00000000)  returns 0x00 (0000ms, 0290ms total)
T1454 000:515 JLINK_WriteReg(R13, 0x20000800)  returns 0x00 (0000ms, 0290ms total)
T1454 000:515 JLINK_WriteReg(R14, 0x20000001)  returns 0x00 (0000ms, 0290ms total)
T1454 000:515 JLINK_WriteReg(R15, 0x20000142)  returns 0x00 (0000ms, 0290ms total)
T1454 000:515 JLINK_WriteReg(XPSR, 0x01000000)  returns 0x00 (0000ms, 0290ms total)
T1454 000:515 JLINK_WriteReg(MSP, 0x20000800)  returns 0x00 (0000ms, 0290ms total)
T1454 000:515 JLINK_WriteReg(PSP, 0x20000800)  returns 0x00 (0000ms, 0290ms total)
T1454 000:515 JLINK_WriteReg(CFBP, 0x00000000)  returns 0x00 (0000ms, 0290ms total)
T1454 000:515 JLINK_SetBPEx(Addr = 0x20000000, Type = 0xFFFFFFF2)  returns 0x00000008 (0000ms, 0290ms total)
T1454 000:515 JLINK_Go() (0003ms, 0293ms total)
T1454 000:518 JLINK_IsHalted()  returns FALSE (0001ms, 0294ms total)
T1454 000:553 JLINK_IsHalted() -- CPU_ReadMem(2 bytes @ 0x20000000)  returns TRUE (0006ms, 0299ms total)
T1454 000:559 JLINK_ReadReg(R15)  returns 0x20000000 (0000ms, 0293ms total)
T1454 000:559 JLINK_ClrBPEx(BPHandle = 0x00000008)  returns 0x00 (0000ms, 0293ms total)
T1454 000:559 JLINK_ReadReg(R0)  returns 0x00000000 (0000ms, 0293ms total)
T1454 000:560 JLINK_WriteMem(0x20000274, 0x018C Bytes, ...) -- Data:  06 D0 02 28 06 D0 03 28 08 D1 05 E0 00 25 07 E0 ... -- CPU_WriteMem(396 bytes @ 0x20000274)  returns 0x18C (0008ms, 0301ms total)
T1454 000:568 JLINK_WriteMem(0x20000400, 0x0274 Bytes, ...) -- Data:  FF FF FF FF FF FF FF FF FF FF FF FF FF FF FF FF ... -- CPU_WriteMem(628 bytes @ 0x20000400)  returns 0x274 (0012ms, 0313ms total)
T1454 000:580 JLINK_WriteReg(R0, 0x00000400)  returns 0x00 (0000ms, 0313ms total)
T1454 000:580 JLINK_WriteReg(R1, 0x000000E4)  returns 0x00 (0000ms, 0313ms total)
T1454 000:580 JLINK_WriteReg(R2, 0x20000274)  returns 0x00 (0000ms, 0313ms total)
T1454 000:580 JLINK_WriteReg(R3, 0x00000000)  returns 0x00 (0000ms, 0313ms total)
T1454 000:580 JLINK_WriteReg(R4, 0x00000000)  returns 0x00 (0000ms, 0313ms total)
T1454 000:580 JLINK_WriteReg(R5, 0x00000000)  returns 0x00 (0000ms, 0313ms total)
T1454 000:580 JLINK_WriteReg(R6, 0x00000000)  returns 0x00 (0000ms, 0313ms total)
T1454 000:580 JLINK_WriteReg(R7, 0x00000000)  returns 0x00 (0000ms, 0313ms total)
T1454 000:580 JLINK_WriteReg(R8, 0x00000000)  returns 0x00 (0000ms, 0313ms total)
T1454 000:580 JLINK_WriteReg(R9, 0x20000270)  returns 0x00 (0000ms, 0313ms total)
T1454 000:580 JLINK_WriteReg(R10, 0x00000000)  returns 0x00 (0000ms, 0313ms total)
T1454 000:580 JLINK_WriteReg(R11, 0x00000000)  returns 0x00 (0000ms, 0313ms total)
T1454 000:580 JLINK_WriteReg(R12, 0x00000000)  returns 0x00 (0000ms, 0313ms total)
T1454 000:581 JLINK_WriteReg(R13, 0x20000800)  returns 0x00 (0000ms, 0313ms total)
T1454 000:581 JLINK_WriteReg(R14, 0x20000001)  returns 0x00 (0000ms, 0313ms total)
T1454 000:581 JLINK_WriteReg(R15, 0x20000142)  returns 0x00 (0000ms, 0313ms total)
T1454 000:581 JLINK_WriteReg(XPSR, 0x01000000)  returns 0x00 (0000ms, 0313ms total)
T1454 000:581 JLINK_WriteReg(MSP, 0x20000800)  returns 0x00 (0000ms, 0313ms total)
T1454 000:581 JLINK_WriteReg(PSP, 0x20000800)  returns 0x00 (0000ms, 0313ms total)
T1454 000:581 JLINK_WriteReg(CFBP, 0x00000000)  returns 0x00 (0000ms, 0313ms total)
T1454 000:581 JLINK_SetBPEx(Addr = 0x20000000, Type = 0xFFFFFFF2)  returns 0x00000009 (0000ms, 0313ms total)
T1454 000:581 JLINK_Go() (0003ms, 0316ms total)
T1454 000:584 JLINK_IsHalted()  returns FALSE (0001ms, 0317ms total)
T1454 000:586 JLINK_IsHalted()  returns FALSE (0001ms, 0317ms total)
T1454 000:588 JLINK_IsHalted() -- CPU_ReadMem(2 bytes @ 0x20000000)  returns TRUE (0006ms, 0322ms total)
T1454 000:594 JLINK_ReadReg(R15)  returns 0x20000000 (0000ms, 0316ms total)
T1454 000:594 JLINK_ClrBPEx(BPHandle = 0x00000009)  returns 0x00 (0000ms, 0316ms total)
T1454 000:594 JLINK_ReadReg(R0)  returns 0x00000000 (0000ms, 0316ms total)
T1454 000:594 JLINK_WriteReg(R0, 0x00000002)  returns 0x00 (0000ms, 0316ms total)
T1454 000:594 JLINK_WriteReg(R1, 0x000000E4)  returns 0x00 (0000ms, 0316ms total)
T1454 000:594 JLINK_WriteReg(R2, 0x20000274)  returns 0x00 (0000ms, 0316ms total)
T1454 000:594 JLINK_WriteReg(R3, 0x00000000)  returns 0x00 (0000ms, 0316ms total)
T1454 000:594 JLINK_WriteReg(R4, 0x00000000)  returns 0x00 (0000ms, 0316ms total)
T1454 000:594 JLINK_WriteReg(R5, 0x00000000)  returns 0x00 (0000ms, 0316ms total)
T1454 000:594 JLINK_WriteReg(R6, 0x00000000)  returns 0x00 (0000ms, 0316ms total)
T1454 000:594 JLINK_WriteReg(R7, 0x00000000)  returns 0x00 (0000ms, 0316ms total)
T1454 000:594 JLINK_WriteReg(R8, 0x00000000)  returns 0x00 (0000ms, 0316ms total)
T1454 000:594 JLINK_WriteReg(R9, 0x20000270)  returns 0x00 (0000ms, 0316ms total)
T1454 000:594 JLINK_WriteReg(R10, 0x00000000)  returns 0x00 (0000ms, 0316ms total)
T1454 000:594 JLINK_WriteReg(R11, 0x00000000)  returns 0x00 (0001ms, 0317ms total)
T1454 000:595 JLINK_WriteReg(R12, 0x00000000)  returns 0x00 (0000ms, 0317ms total)
T1454 000:595 JLINK_WriteReg(R13, 0x20000800)  returns 0x00 (0000ms, 0317ms total)
T1454 000:595 JLINK_WriteReg(R14, 0x20000001)  returns 0x00 (0000ms, 0317ms total)
T1454 000:595 JLINK_WriteReg(R15, 0x20000074)  returns 0x00 (0000ms, 0317ms total)
T1454 000:595 JLINK_WriteReg(XPSR, 0x01000000)  returns 0x00 (0000ms, 0317ms total)
T1454 000:595 JLINK_WriteReg(MSP, 0x20000800)  returns 0x00 (0000ms, 0317ms total)
T1454 000:595 JLINK_WriteReg(PSP, 0x20000800)  returns 0x00 (0000ms, 0317ms total)
T1454 000:595 JLINK_WriteReg(CFBP, 0x00000000)  returns 0x00 (0000ms, 0317ms total)
T1454 000:595 JLINK_SetBPEx(Addr = 0x20000000, Type = 0xFFFFFFF2)  returns 0x0000000A (0000ms, 0317ms total)
T1454 000:595 JLINK_Go() (0003ms, 0320ms total)
T1454 000:598 JLINK_IsHalted() -- CPU_ReadMem(2 bytes @ 0x20000000)  returns TRUE (0006ms, 0326ms total)
T1454 000:604 JLINK_ReadReg(R15)  returns 0x20000000 (0000ms, 0320ms total)
T1454 000:604 JLINK_ClrBPEx(BPHandle = 0x0000000A)  returns 0x00 (0000ms, 0320ms total)
T1454 000:604 JLINK_ReadReg(R0)  returns 0x00000000 (0000ms, 0320ms total)
T1454 000:662 JLINK_WriteMem(0x20000000, 0x0274 Bytes, ...) -- Data:  00 BE 0A E0 0D 78 2D 06 68 40 08 24 40 00 00 D3 ... -- CPU_WriteMem(628 bytes @ 0x20000000)  returns 0x274 (0012ms, 0332ms total)
T1454 000:674 JLINK_WriteReg(R0, 0x00000000)  returns 0x00 (0000ms, 0332ms total)
T1454 000:674 JLINK_WriteReg(R1, 0x00F42400)  returns 0x00 (0000ms, 0332ms total)
T1454 000:674 JLINK_WriteReg(R2, 0x00000003)  returns 0x00 (0000ms, 0332ms total)
T1454 000:674 JLINK_WriteReg(R3, 0x00000000)  returns 0x00 (0000ms, 0332ms total)
T1454 000:674 JLINK_WriteReg(R4, 0x00000000)  returns 0x00 (0000ms, 0332ms total)
T1454 000:674 JLINK_WriteReg(R5, 0x00000000)  returns 0x00 (0000ms, 0332ms total)
T1454 000:674 JLINK_WriteReg(R6, 0x00000000)  returns 0x00 (0000ms, 0332ms total)
T1454 000:674 JLINK_WriteReg(R7, 0x00000000)  returns 0x00 (0000ms, 0332ms total)
T1454 000:674 JLINK_WriteReg(R8, 0x00000000)  returns 0x00 (0000ms, 0332ms total)
T1454 000:674 JLINK_WriteReg(R9, 0x20000270)  returns 0x00 (0000ms, 0332ms total)
T1454 000:674 JLINK_WriteReg(R10, 0x00000000)  returns 0x00 (0000ms, 0332ms total)
T1454 000:674 JLINK_WriteReg(R11, 0x00000000)  returns 0x00 (0001ms, 0333ms total)
T1454 000:675 JLINK_WriteReg(R12, 0x00000000)  returns 0x00 (0000ms, 0333ms total)
T1454 000:675 JLINK_WriteReg(R13, 0x20000800)  returns 0x00 (0000ms, 0333ms total)
T1454 000:675 JLINK_WriteReg(R14, 0x20000001)  returns 0x00 (0000ms, 0333ms total)
T1454 000:675 JLINK_WriteReg(R15, 0x20000028)  returns 0x00 (0000ms, 0333ms total)
T1454 000:675 JLINK_WriteReg(XPSR, 0x01000000)  returns 0x00 (0000ms, 0333ms total)
T1454 000:675 JLINK_WriteReg(MSP, 0x20000800)  returns 0x00 (0000ms, 0333ms total)
T1454 000:675 JLINK_WriteReg(PSP, 0x20000800)  returns 0x00 (0000ms, 0333ms total)
T1454 000:675 JLINK_WriteReg(CFBP, 0x00000000)  returns 0x00 (0000ms, 0333ms total)
T1454 000:675 JLINK_SetBPEx(Addr = 0x20000000, Type = 0xFFFFFFF2) -- CPU_ReadMem(2 bytes @ 0x20000000)  returns 0x0000000B (0001ms, 0334ms total)
T1454 000:676 JLINK_Go() -- CPU_WriteMem(2 bytes @ 0x20000000) (0004ms, 0338ms total)
T1454 000:680 JLINK_IsHalted() -- CPU_ReadMem(2 bytes @ 0x20000000)  returns TRUE (0006ms, 0344ms total)
T1454 000:686 JLINK_ReadReg(R15)  returns 0x20000000 (0000ms, 0338ms total)
T1454 000:686 JLINK_ClrBPEx(BPHandle = 0x0000000B)  returns 0x00 (0000ms, 0338ms total)
T1454 000:686 JLINK_ReadReg(R0)  returns 0x00000000 (0000ms, 0338ms total)
T1454 000:686 JLINK_WriteMem(0x20000274, 0x018C Bytes, ...) -- Data:  00 0C 00 20 D5 00 00 00 E7 00 00 00 E9 00 00 00 ... -- CPU_WriteMem(396 bytes @ 0x20000274)  returns 0x18C (0009ms, 0347ms total)
T1454 000:695 JLINK_WriteMem(0x20000400, 0x0274 Bytes, ...) -- Data:  00 F0 AA F8 00 22 02 21 10 46 00 F0 FB F8 01 90 ... -- CPU_WriteMem(628 bytes @ 0x20000400)  returns 0x274 (0011ms, 0358ms total)
T1454 000:706 JLINK_WriteReg(R0, 0x00000000)  returns 0x00 (0000ms, 0358ms total)
T1454 000:706 JLINK_WriteReg(R1, 0x00000400)  returns 0x00 (0000ms, 0358ms total)
T1454 000:706 JLINK_WriteReg(R2, 0x20000274)  returns 0x00 (0000ms, 0358ms total)
T1454 000:706 JLINK_WriteReg(R3, 0x00000000)  returns 0x00 (0000ms, 0358ms total)
T1454 000:706 JLINK_WriteReg(R4, 0x00000000)  returns 0x00 (0000ms, 0358ms total)
T1454 000:706 JLINK_WriteReg(R5, 0x00000000)  returns 0x00 (0000ms, 0358ms total)
T1454 000:706 JLINK_WriteReg(R6, 0x00000000)  returns 0x00 (0000ms, 0358ms total)
T1454 000:706 JLINK_WriteReg(R7, 0x00000000)  returns 0x00 (0000ms, 0358ms total)
T1454 000:706 JLINK_WriteReg(R8, 0x00000000)  returns 0x00 (0000ms, 0358ms total)
T1454 000:706 JLINK_WriteReg(R9, 0x20000270)  returns 0x00 (0000ms, 0358ms total)
T1454 000:706 JLINK_WriteReg(R10, 0x00000000)  returns 0x00 (0000ms, 0358ms total)
T1454 000:706 JLINK_WriteReg(R11, 0x00000000)  returns 0x00 (0000ms, 0358ms total)
T1454 000:706 JLINK_WriteReg(R12, 0x00000000)  returns 0x00 (0000ms, 0358ms total)
T1454 000:706 JLINK_WriteReg(R13, 0x20000800)  returns 0x00 (0001ms, 0359ms total)
T1454 000:707 JLINK_WriteReg(R14, 0x20000001)  returns 0x00 (0000ms, 0359ms total)
T1454 000:707 JLINK_WriteReg(R15, 0x200001A6)  returns 0x00 (0000ms, 0359ms total)
T1454 000:707 JLINK_WriteReg(XPSR, 0x01000000)  returns 0x00 (0000ms, 0359ms total)
T1454 000:707 JLINK_WriteReg(MSP, 0x20000800)  returns 0x00 (0000ms, 0359ms total)
T1454 000:707 JLINK_WriteReg(PSP, 0x20000800)  returns 0x00 (0000ms, 0359ms total)
T1454 000:707 JLINK_WriteReg(CFBP, 0x00000000)  returns 0x00 (0000ms, 0359ms total)
T1454 000:707 JLINK_SetBPEx(Addr = 0x20000000, Type = 0xFFFFFFF2)  returns 0x0000000C (0000ms, 0359ms total)
T1454 000:707 JLINK_Go() (0003ms, 0362ms total)
T1454 000:710 JLINK_IsHalted() -- CPU_ReadMem(2 bytes @ 0x20000000)  returns TRUE (0006ms, 0368ms total)
T1454 000:716 JLINK_ReadReg(R15)  returns 0x20000000 (0000ms, 0362ms total)
T1454 000:716 JLINK_ClrBPEx(BPHandle = 0x0000000C)  returns 0x00 (0000ms, 0362ms total)
T1454 000:716 JLINK_ReadReg(R0)  returns 0x00000400 (0000ms, 0362ms total)
T1454 000:717 JLINK_WriteMem(0x20000274, 0x018C Bytes, ...) -- Data:  06 D0 02 28 06 D0 03 28 08 D1 05 E0 00 25 07 E0 ... -- CPU_WriteMem(396 bytes @ 0x20000274)  returns 0x18C (0008ms, 0370ms total)
T1454 000:725 JLINK_WriteMem(0x20000400, 0x0274 Bytes, ...) -- Data:  00 00 00 00 00 00 00 00 00 00 00 00 00 00 00 00 ... -- CPU_WriteMem(628 bytes @ 0x20000400)  returns 0x274 (0012ms, 0382ms total)
T1454 000:737 JLINK_WriteReg(R0, 0x00000400)  returns 0x00 (0000ms, 0382ms total)
T1454 000:737 JLINK_WriteReg(R1, 0x000000E4)  returns 0x00 (0000ms, 0382ms total)
T1454 000:737 JLINK_WriteReg(R2, 0x20000274)  returns 0x00 (0000ms, 0382ms total)
T1454 000:737 JLINK_WriteReg(R3, 0x00000000)  returns 0x00 (0000ms, 0382ms total)
T1454 000:737 JLINK_WriteReg(R4, 0x00000000)  returns 0x00 (0000ms, 0382ms total)
T1454 000:737 JLINK_WriteReg(R5, 0x00000000)  returns 0x00 (0000ms, 0382ms total)
T1454 000:737 JLINK_WriteReg(R6, 0x00000000)  returns 0x00 (0000ms, 0382ms total)
T1454 000:737 JLINK_WriteReg(R7, 0x00000000)  returns 0x00 (0000ms, 0382ms total)
T1454 000:737 JLINK_WriteReg(R8, 0x00000000)  returns 0x00 (0000ms, 0382ms total)
T1454 000:737 JLINK_WriteReg(R9, 0x20000270)  returns 0x00 (0000ms, 0382ms total)
T1454 000:737 JLINK_WriteReg(R10, 0x00000000)  returns 0x00 (0000ms, 0382ms total)
T1454 000:737 JLINK_WriteReg(R11, 0x00000000)  returns 0x00 (0000ms, 0382ms total)
T1454 000:737 JLINK_WriteReg(R12, 0x00000000)  returns 0x00 (0001ms, 0383ms total)
T1454 000:738 JLINK_WriteReg(R13, 0x20000800)  returns 0x00 (0000ms, 0383ms total)
T1454 000:738 JLINK_WriteReg(R14, 0x20000001)  returns 0x00 (0000ms, 0383ms total)
T1454 000:738 JLINK_WriteReg(R15, 0x200001A6)  returns 0x00 (0000ms, 0383ms total)
T1454 000:738 JLINK_WriteReg(XPSR, 0x01000000)  returns 0x00 (0000ms, 0383ms total)
T1454 000:738 JLINK_WriteReg(MSP, 0x20000800)  returns 0x00 (0000ms, 0383ms total)
T1454 000:738 JLINK_WriteReg(PSP, 0x20000800)  returns 0x00 (0000ms, 0383ms total)
T1454 000:738 JLINK_WriteReg(CFBP, 0x00000000)  returns 0x00 (0000ms, 0383ms total)
T1454 000:738 JLINK_SetBPEx(Addr = 0x20000000, Type = 0xFFFFFFF2)  returns 0x0000000D (0000ms, 0383ms total)
T1454 000:738 JLINK_Go() (0002ms, 0385ms total)
T1454 000:740 JLINK_IsHalted() -- CPU_ReadMem(2 bytes @ 0x20000000)  returns TRUE (0006ms, 0391ms total)
T1454 000:746 JLINK_ReadReg(R15)  returns 0x20000000 (0000ms, 0385ms total)
T1454 000:746 JLINK_ClrBPEx(BPHandle = 0x0000000D)  returns 0x00 (0000ms, 0385ms total)
T1454 000:746 JLINK_ReadReg(R0)  returns 0x000004E4 (0000ms, 0385ms total)
T1454 000:747 JLINK_WriteReg(R0, 0x00000003)  returns 0x00 (0000ms, 0385ms total)
T1454 000:747 JLINK_WriteReg(R1, 0x000000E4)  returns 0x00 (0000ms, 0385ms total)
T1454 000:747 JLINK_WriteReg(R2, 0x20000274)  returns 0x00 (0000ms, 0385ms total)
T1454 000:747 JLINK_WriteReg(R3, 0x00000000)  returns 0x00 (0000ms, 0385ms total)
T1454 000:747 JLINK_WriteReg(R4, 0x00000000)  returns 0x00 (0000ms, 0385ms total)
T1454 000:747 JLINK_WriteReg(R5, 0x00000000)  returns 0x00 (0000ms, 0385ms total)
T1454 000:747 JLINK_WriteReg(R6, 0x00000000)  returns 0x00 (0000ms, 0385ms total)
T1454 000:747 JLINK_WriteReg(R7, 0x00000000)  returns 0x00 (0000ms, 0385ms total)
T1454 000:747 JLINK_WriteReg(R8, 0x00000000)  returns 0x00 (0000ms, 0385ms total)
T1454 000:747 JLINK_WriteReg(R9, 0x20000270)  returns 0x00 (0000ms, 0385ms total)
T1454 000:747 JLINK_WriteReg(R10, 0x00000000)  returns 0x00 (0000ms, 0385ms total)
T1454 000:747 JLINK_WriteReg(R11, 0x00000000)  returns 0x00 (0000ms, 0385ms total)
T1454 000:747 JLINK_WriteReg(R12, 0x00000000)  returns 0x00 (0000ms, 0385ms total)
T1454 000:747 JLINK_WriteReg(R13, 0x20000800)  returns 0x00 (0000ms, 0385ms total)
T1454 000:747 JLINK_WriteReg(R14, 0x20000001)  returns 0x00 (0000ms, 0385ms total)
T1454 000:747 JLINK_WriteReg(R15, 0x20000074)  returns 0x00 (0000ms, 0385ms total)
T1454 000:747 JLINK_WriteReg(XPSR, 0x01000000)  returns 0x00 (0000ms, 0385ms total)
T1454 000:747 JLINK_WriteReg(MSP, 0x20000800)  returns 0x00 (0000ms, 0385ms total)
T1454 000:747 JLINK_WriteReg(PSP, 0x20000800)  returns 0x00 (0000ms, 0385ms total)
T1454 000:747 JLINK_WriteReg(CFBP, 0x00000000)  returns 0x00 (0001ms, 0386ms total)
T1454 000:748 JLINK_SetBPEx(Addr = 0x20000000, Type = 0xFFFFFFF2)  returns 0x0000000E (0000ms, 0386ms total)
T1454 000:748 JLINK_Go() (0002ms, 0388ms total)
T1454 000:750 JLINK_IsHalted() -- CPU_ReadMem(2 bytes @ 0x20000000)  returns TRUE (0006ms, 0394ms total)
T1454 000:756 JLINK_ReadReg(R15)  returns 0x20000000 (0000ms, 0388ms total)
T1454 000:756 JLINK_ClrBPEx(BPHandle = 0x0000000E)  returns 0x00 (0000ms, 0388ms total)
T1454 000:756 JLINK_ReadReg(R0)  returns 0x00000000 (0000ms, 0388ms total)
T1454 000:810 JLINK_SetResetType(JLINKARM_RESET_TYPE_NORMAL)  returns JLINKARM_RESET_TYPE_NORMAL (0001ms, 0389ms total)
T1454 000:811 JLINK_Reset() -- CPU_ReadMem(4 bytes @ 0x20000400) -- CPU_WriteMem(4 bytes @ 0x20000400) -- CPU_WriteMem(4 bytes @ 0xE000EDF0) -- CPU_WriteMem(4 bytes @ 0xE000EDFC) >0x35 TIF> -- CPU_WriteMem(4 bytes @ 0xE000ED0C) -- CPU_ReadMem(4 bytes @ 0xE000EDF0) -- CPU_ReadMem(4 bytes @ 0xE000EDF0) -- CPU_WriteMem(4 bytes @ 0xE000EDF0) -- CPU_WriteMem(4 bytes @ 0xE000EDFC) -- CPU is running -- CPU_ReadMem(4 bytes @ 0xE000EDF0) -- CPU_WriteMem(4 bytes @ 0xE0002000) (0027ms, 0416ms total)
T1454 000:838 JLINK_Go() -- CPU_ReadMem(2 bytes @ 0x20000000) -- CPU_WriteMem(2 bytes @ 0x20000000) -- CPU_WriteMem(4 bytes @ 0xE0002008) -- CPU_WriteMem(4 bytes @ 0xE000200C) -- CPU_WriteMem(4 bytes @ 0xE0002010) -- CPU_WriteMem(4 bytes @ 0xE0002014) (0007ms, 0423ms total)
T1454 000:850 JLINK_Close() -- CPU is running -- CPU_WriteMem(4 bytes @ 0xE0002008) -- CPU is running -- CPU_WriteMem(4 bytes @ 0xE000200C) -- CPU is running -- CPU_WriteMem(4 bytes @ 0xE0002010) -- CPU is running -- CPU_WriteMem(4 bytes @ 0xE0002014) >0x42 TIF> >0x28 TIF> >0x35 TIF> (0015ms, 0438ms total)
T1454 000:866 JLINK_Close() (0000ms, 0438ms total)
